
T37A0 000:430 SEGGER J-Link V4.80g Log File (0001ms, 0271ms total)
T37A0 000:430 DLL Compiled: Feb 13 2014 20:50:02 (0001ms, 0271ms total)
T37A0 000:430 Logging started @ 2020-10-09 20:14 (0001ms, 0271ms total)
T37A0 000:431 JLINK_SetWarnOutHandler(...) (0000ms, 0271ms total)
T37A0 000:431 JLINK_OpenEx(...)
Firmware: J-Link ARM V8 compiled Nov 28 2014 13:44:46
Hardware: V8.00
S/N: 304439649
Feature(s): RDI,FlashDL,FlashBP,JFlash,GDBFULL  returns O.K. (0266ms, 0537ms total)
T37A0 000:697 JLINK_SetErrorOutHandler(...) (0000ms, 0537ms total)
T37A0 000:697 JLINK_ExecCommand("ProjectFile = "C:\Users\MINGZI\Desktop\impedance\USER\JLinkSettings.ini"", ...)  returns 0x00 (0000ms, 0537ms total)
T37A0 000:697 JLINK_ExecCommand("Device = STM32F407ZG", ...)Device "STM32F407ZG" selected (1024 KB flash, 128 KB RAM).  returns 0x00 (0002ms, 0539ms total)
T37A0 000:699 JLINK_ExecCommand("DisableConnectionTimeout", ...)  returns 0x01 (0000ms, 0539ms total)
T37A0 000:699 JLINK_GetHardwareVersion()  returns 0x13880 (0000ms, 0539ms total)
T37A0 000:699 JLINK_GetDLLVersion()  returns 48007 (0000ms, 0539ms total)
T37A0 000:699 JLINK_GetFirmwareString(...) (0000ms, 0539ms total)
T37A0 000:700 JLINK_GetDLLVersion()  returns 48007 (0000ms, 0539ms total)
T37A0 000:700 JLINK_GetCompileDateTime() (0000ms, 0539ms total)
T37A0 000:700 JLINK_GetFirmwareString(...) (0000ms, 0539ms total)
T37A0 000:700 JLINK_GetHardwareVersion()  returns 0x13880 (0000ms, 0539ms total)
T37A0 000:700 JLINK_TIF_Select(JLINKARM_TIF_SWD)  returns 0x00 (0002ms, 0541ms total)
T37A0 000:702 JLINK_SetSpeed(500) (0000ms, 0541ms total)
T37A0 000:702 JLINK_GetId() >0x108 TIF>Found SWD-DP with ID 0x2BA01477 >0x0D TIF> >0x28 TIF> >0x0D TIF> >0x28 TIF> >0x0D TIF> >0x21 TIF> >0x0D TIF> >0x28 TIF> >0x0D TIF> >0x28 TIF> >0x0D TIF> >0x28 TIF> >0x0D TIF> >0x21 TIF> >0x0D TIF> >0x21 TIF> >0x0D TIF> >0x28 TIF> >0x0D TIF> >0x21 TIF> >0x0D TIF> >0x21 TIF> >0x0D TIF> >0x28 TIF> >0x0D TIF> >0x21 TIF> >0x0D TIF> >0x21 TIF> >0x108 TIF>Found SWD-DP with ID 0x2BA01477 >0x0D TIF> >0x21 TIF> >0x0D TIF> >0x28 TIF> >0x0D TIF> >0x28 TIF> >0x0D TIF> >0x21 TIF>
 >0x0D TIF> >0x28 TIF> >0x0D TIF> >0x21 TIF> >0x0D TIF> >0x21 TIF> >0x0D TIF> >0x21 TIF> >0x0D TIF> >0x21 TIF> >0x0D TIF> >0x28 TIF> >0x0D TIF> >0x28 TIF> >0x0D TIF> >0x21 TIF> >0x0D TIF> >0x28 TIF> >0x0D TIF> >0x28 TIF> >0x0D TIF> >0x28 TIF> >0x0D TIF> >0x21 TIF> >0x0D TIF> >0x21 TIF> >0x0D TIF> >0x28 TIF> >0x0D TIF> >0x21 TIF> >0x0D TIF> >0x21 TIF>Found Cortex-M4 r0p1, Little endian. -- CPU_WriteMem(4 bytes @ 0xE0002000) -- CPU_ReadMem(4 bytes @ 0xE000EDF0) -- CPU_ReadMem(4 bytes @ 0xE0002000)
FPUnit: 6 code (BP) slots and 2 literal slots -- CPU_ReadMem(4 bytes @ 0xE000EDFC) -- CPU_ReadMem(4 bytes @ 0xE0001000) -- CPU_WriteMem(4 bytes @ 0xE0001000) -- CPU_ReadMem(4 bytes @ 0xE00FF010)TPIU fitted. -- CPU_ReadMem(4 bytes @ 0xE00FF014)ETM fitted. -- CPU_ReadMem(4 bytes @ 0xE00FF018) >0x0D TIF> >0x21 TIF>  returns 0x2BA01477 (0087ms, 0628ms total)
T37A0 000:789 JLINK_GetDeviceFamily()  returns 14 (0000ms, 0628ms total)
T37A0 000:792 JLINK_ReadMem (0xE00FFFF0, 0x0010 Bytes, ...) -- CPU is running -- CPU_ReadMem(16 bytes @ 0xE00FFFF0) -- Data:  0D 00 00 00 10 00 00 00 05 00 00 00 B1 00 00 00  returns 0x00 (0000ms, 0628ms total)
T37A0 000:793 JLINK_ReadMem (0xE00FFFD0, 0x0020 Bytes, ...) -- CPU is running -- CPU_ReadMem(32 bytes @ 0xE00FFFD0) -- Data:  00 00 00 00 00 00 00 00 00 00 00 00 00 00 00 00 ...  returns 0x00 (0002ms, 0631ms total)
T37A0 000:795 JLINK_ReadMem (0xE00FF000, 0x0018 Bytes, ...) -- CPU is running -- CPU_ReadMem(24 bytes @ 0xE00FF000) -- Data:  03 F0 F0 FF 03 20 F0 FF 03 30 F0 FF 03 10 F0 FF ...  returns 0x00 (0002ms, 0633ms total)
T37A0 000:797 JLINK_ReadMemU32(0xE000ED00, 0x0001 Items, ...) -- CPU is running -- CPU_ReadMem(4 bytes @ 0xE000ED00) -- Data:  41 C2 0F 41  returns 0x01 (0002ms, 0635ms total)
T37A0 000:799 JLINK_ReadMemU32(0xE000EF40, 0x0001 Items, ...) -- CPU is running -- CPU_ReadMem(4 bytes @ 0xE000EF40) -- Data:  21 00 11 10  returns 0x01 (0001ms, 0636ms total)
T37A0 000:800 JLINK_ReadMemU32(0xE000EF44, 0x0001 Items, ...) -- CPU is running -- CPU_ReadMem(4 bytes @ 0xE000EF44) -- Data:  11 00 00 11  returns 0x01 (0002ms, 0638ms total)
T37A0 000:802 JLINK_SetResetType(JLINKARM_RESET_TYPE_NORMAL)  returns JLINKARM_RESET_TYPE_NORMAL (0000ms, 0638ms total)
T37A0 000:802 JLINK_Reset() -- CPU is running -- CPU_WriteMem(4 bytes @ 0xE000EDF0) -- CPU is running -- CPU_WriteMem(4 bytes @ 0xE000EDFC) >0x35 TIF> -- CPU is running -- CPU_WriteMem(4 bytes @ 0xE000ED0C) -- CPU is running -- CPU_ReadMem(4 bytes @ 0xE000EDF0) -- CPU is running -- CPU_ReadMem(4 bytes @ 0xE000EDF0) -- CPU is running -- CPU_WriteMem(4 bytes @ 0xE000EDF0) -- CPU is running -- CPU_WriteMem(4 bytes @ 0xE000EDFC) -- CPU is running -- CPU_ReadMem(4 bytes @ 0xE000EDF0)
 -- CPU_WriteMem(4 bytes @ 0xE0002000) -- CPU_ReadMem(4 bytes @ 0xE000EDFC) -- CPU_ReadMem(4 bytes @ 0xE0001000) (0051ms, 0689ms total)
T37A0 000:854 JLINK_ReadReg(R15 (PC))  returns 0x0800019C (0000ms, 0689ms total)
T37A0 000:854 JLINK_ReadReg(XPSR)  returns 0x01000000 (0000ms, 0689ms total)
T37A0 000:854 JLINK_Halt()  returns 0x00 (0000ms, 0689ms total)
T37A0 000:854 JLINK_IsHalted()  returns TRUE (0000ms, 0689ms total)
T37A0 000:854 JLINK_ReadMemU32(0xE000EDF0, 0x0001 Items, ...) -- CPU_ReadMem(4 bytes @ 0xE000EDF0) -- Data:  03 00 03 00  returns 0x01 (0001ms, 0690ms total)
T37A0 000:855 JLINK_WriteU32(0xE000EDF0, 0xA05F0003) -- CPU_WriteMem(4 bytes @ 0xE000EDF0)  returns 0x00 (0000ms, 0690ms total)
T37A0 000:855 JLINK_WriteU32(0xE000EDFC, 0x01000000) -- CPU_WriteMem(4 bytes @ 0xE000EDFC)  returns 0x00 (0001ms, 0691ms total)
T37A0 000:858 JLINK_GetHWStatus(...)  returns 0x00 (0000ms, 0691ms total)
T37A0 000:858 JLINK_GetNumBPUnits(Type = 0xFFFFFF00)  returns 0x06 (0000ms, 0691ms total)
T37A0 000:858 JLINK_GetNumBPUnits(Type = 0xF0)  returns 0x2000 (0000ms, 0691ms total)
T37A0 000:858 JLINK_GetNumWPUnits()  returns 0x04 (0000ms, 0691ms total)
T37A0 000:858 JLINK_GetSpeed()  returns 0x1F4 (0000ms, 0691ms total)
T37A0 000:858 JLINK_ReadMemU32(0xE000E004, 0x0001 Items, ...) -- CPU_ReadMem(4 bytes @ 0xE000E004) -- Data:  02 00 00 00  returns 0x01 (0001ms, 0692ms total)
T37A0 000:859 JLINK_ReadMemU32(0xE000E004, 0x0001 Items, ...) -- CPU_ReadMem(4 bytes @ 0xE000E004) -- Data:  02 00 00 00  returns 0x01 (0001ms, 0693ms total)
T37A0 000:860 JLINK_WriteMem(0xE0001000, 0x001C Bytes, ...) -- Data:  01 00 00 00 00 00 00 00 00 00 00 00 00 00 00 00 ... -- CPU_WriteMem(28 bytes @ 0xE0001000)  returns 0x1C (0004ms, 0697ms total)
T37A0 000:864 JLINK_ReadMem (0xE0001000, 0x001C Bytes, ...) -- CPU_ReadMem(28 bytes @ 0xE0001000) -- Data:  01 00 00 40 00 00 00 00 00 00 00 00 00 00 00 00 ...  returns 0x00 (0002ms, 0699ms total)
T37A0 000:866 JLINK_ReadReg(R15 (PC))  returns 0x0800019C (0000ms, 0699ms total)
T37A0 000:866 JLINK_ReadReg(XPSR)  returns 0x01000000 (0000ms, 0699ms total)
T37A0 000:934 JLINK_SetResetType(JLINKARM_RESET_TYPE_NORMAL)  returns JLINKARM_RESET_TYPE_NORMAL (0000ms, 0699ms total)
T37A0 000:934 JLINK_Reset() -- CPU_WriteMem(4 bytes @ 0xE000EDF0) -- CPU_WriteMem(4 bytes @ 0xE000EDFC) >0x35 TIF> -- CPU_WriteMem(4 bytes @ 0xE000ED0C) -- CPU_ReadMem(4 bytes @ 0xE000EDF0) -- CPU_ReadMem(4 bytes @ 0xE000EDF0) -- CPU_WriteMem(4 bytes @ 0xE000EDF0) -- CPU_WriteMem(4 bytes @ 0xE000EDFC) -- CPU is running -- CPU_ReadMem(4 bytes @ 0xE000EDF0) -- CPU_WriteMem(4 bytes @ 0xE0002000) -- CPU_ReadMem(4 bytes @ 0xE000EDFC) -- CPU_ReadMem(4 bytes @ 0xE0001000) (0035ms, 0734ms total)
T37A0 000:969 JLINK_ReadReg(R15 (PC))  returns 0x0800019C (0000ms, 0734ms total)
T37A0 000:969 JLINK_ReadReg(XPSR)  returns 0x01000000 (0000ms, 0734ms total)
T37A0 000:969 JLINK_ReadMem (0x0800019C, 0x003C Bytes, ...) -- CPU_ReadMem(128 bytes @ 0x08000180) -- Updating C cache (128 bytes @ 0x08000180) -- Read from C cache (60 bytes @ 0x0800019C) -- Data:  06 48 80 47 06 48 00 47 FE E7 FE E7 FE E7 FE E7 ...  returns 0x00 (0005ms, 0739ms total)
T0C74 002:108 JLINK_SetBPEx(Addr = 0x08000A60, Type = 0xFFFFFFF2)  returns 0x00000001 (0001ms, 0740ms total)
T0C74 002:109 JLINK_SetBPEx(Addr = 0x08000AAA, Type = 0xFFFFFFF2)  returns 0x00000002 (0000ms, 0740ms total)
T0C74 002:109 JLINK_SetBPEx(Addr = 0x08000A90, Type = 0xFFFFFFF2)  returns 0x00000003 (0000ms, 0740ms total)
T0C74 002:109 JLINK_SetBPEx(Addr = 0x08000A86, Type = 0xFFFFFFF2)  returns 0x00000004 (0000ms, 0740ms total)
T0C74 002:109 JLINK_SetBPEx(Addr = 0x08000A7C, Type = 0xFFFFFFF2)  returns 0x00000005 (0000ms, 0740ms total)
T0C74 002:109 JLINK_Go() -- CPU_WriteMem(4 bytes @ 0xE0002000) -- CPU_WriteMem(4 bytes @ 0xE0002008) -- CPU_WriteMem(4 bytes @ 0xE0002000) -- CPU_WriteMem(4 bytes @ 0xE000200C) -- CPU_WriteMem(4 bytes @ 0xE0002000) -- CPU_WriteMem(4 bytes @ 0xE0002010) -- CPU_WriteMem(4 bytes @ 0xE0002000) -- CPU_WriteMem(4 bytes @ 0xE0002014) -- CPU_WriteMem(4 bytes @ 0xE0002000) -- CPU_WriteMem(4 bytes @ 0xE0002018) -- CPU_WriteMem(4 bytes @ 0xE000201C) -- CPU_WriteMem(4 bytes @ 0xE0001004) (0016ms, 0756ms total)
T0C74 002:225 JLINK_IsHalted()  returns TRUE (0008ms, 0764ms total)
T0C74 002:233 JLINK_Halt()  returns 0x00 (0000ms, 0756ms total)
T0C74 002:233 JLINK_IsHalted()  returns TRUE (0000ms, 0756ms total)
T0C74 002:233 JLINK_IsHalted()  returns TRUE (0000ms, 0756ms total)
T0C74 002:233 JLINK_IsHalted()  returns TRUE (0000ms, 0756ms total)
T0C74 002:233 JLINK_ReadReg(R15 (PC))  returns 0x08000A60 (0000ms, 0756ms total)
T0C74 002:233 JLINK_ReadReg(XPSR)  returns 0x61000000 (0000ms, 0756ms total)
T0C74 002:233 JLINK_ClrBPEx(BPHandle = 0x00000001)  returns 0x00 (0000ms, 0756ms total)
T0C74 002:233 JLINK_ClrBPEx(BPHandle = 0x00000002)  returns 0x00 (0000ms, 0756ms total)
T0C74 002:233 JLINK_ClrBPEx(BPHandle = 0x00000003)  returns 0x00 (0000ms, 0756ms total)
T0C74 002:233 JLINK_ClrBPEx(BPHandle = 0x00000004)  returns 0x00 (0000ms, 0756ms total)
T0C74 002:233 JLINK_ClrBPEx(BPHandle = 0x00000005)  returns 0x00 (0000ms, 0756ms total)
T0C74 002:233 JLINK_ReadMemU32(0xE000ED30, 0x0001 Items, ...) -- CPU_ReadMem(4 bytes @ 0xE000ED30) -- Data:  03 00 00 00  returns 0x01 (0002ms, 0758ms total)
T0C74 002:235 JLINK_ReadMemU32(0xE0001028, 0x0001 Items, ...) -- CPU_ReadMem(4 bytes @ 0xE0001028) -- Data:  00 00 00 00  returns 0x01 (0001ms, 0759ms total)
T0C74 002:236 JLINK_ReadMemU32(0xE0001038, 0x0001 Items, ...) -- CPU_ReadMem(4 bytes @ 0xE0001038) -- Data:  00 02 00 00  returns 0x01 (0001ms, 0760ms total)
T0C74 002:237 JLINK_ReadMemU32(0xE0001048, 0x0001 Items, ...) -- CPU_ReadMem(4 bytes @ 0xE0001048) -- Data:  00 00 00 00  returns 0x01 (0001ms, 0761ms total)
T0C74 002:238 JLINK_ReadMemU32(0xE0001058, 0x0001 Items, ...) -- CPU_ReadMem(4 bytes @ 0xE0001058) -- Data:  00 00 00 00  returns 0x01 (0001ms, 0762ms total)
T0C74 002:239 JLINK_ReadReg(R0)  returns 0x08000A61 (0000ms, 0762ms total)
T0C74 002:239 JLINK_ReadReg(R1)  returns 0x200004D8 (0000ms, 0762ms total)
T0C74 002:239 JLINK_ReadReg(R2)  returns 0x00000000 (0000ms, 0762ms total)
T0C74 002:239 JLINK_ReadReg(R3)  returns 0x080008FB (0000ms, 0762ms total)
T0C74 002:239 JLINK_ReadReg(R4)  returns 0x08000AD8 (0000ms, 0762ms total)
T0C74 002:239 JLINK_ReadReg(R5)  returns 0x08000AD8 (0000ms, 0762ms total)
T0C74 002:239 JLINK_ReadReg(R6)  returns 0x00000000 (0000ms, 0762ms total)
T0C74 002:239 JLINK_ReadReg(R7)  returns 0x00000000 (0000ms, 0762ms total)
T0C74 002:239 JLINK_ReadReg(R8)  returns 0x00000000 (0001ms, 0763ms total)
T0C74 002:240 JLINK_ReadReg(R9)  returns 0x00000000 (0000ms, 0763ms total)
T0C74 002:240 JLINK_ReadReg(R10)  returns 0x00000000 (0000ms, 0763ms total)
T0C74 002:240 JLINK_ReadReg(R11)  returns 0x00000000 (0000ms, 0763ms total)
T0C74 002:240 JLINK_ReadReg(R12)  returns 0x00000000 (0000ms, 0763ms total)
T0C74 002:240 JLINK_ReadReg(R13 (SP))  returns 0x200004D8 (0000ms, 0763ms total)
T0C74 002:240 JLINK_ReadReg(R14)  returns 0x080001DD (0000ms, 0763ms total)
T0C74 002:240 JLINK_ReadReg(R15 (PC))  returns 0x08000A60 (0000ms, 0763ms total)
T0C74 002:240 JLINK_ReadReg(XPSR)  returns 0x61000000 (0000ms, 0763ms total)
T0C74 002:240 JLINK_ReadReg(MSP)  returns 0x200004D8 (0000ms, 0763ms total)
T0C74 002:240 JLINK_ReadReg(PSP)  returns 0x00000000 (0000ms, 0763ms total)
T0C74 002:240 JLINK_ReadReg(CFBP)  returns 0x00000000 (0000ms, 0763ms total)
T0C74 002:240 JLINK_ReadReg(FPSCR)  returns 0x00000000 (0013ms, 0776ms total)
T0C74 002:253 JLINK_ReadReg(FPS0)  returns 0x00000000 (0000ms, 0776ms total)
T0C74 002:253 JLINK_ReadReg(FPS1)  returns 0x00000000 (0000ms, 0776ms total)
T0C74 002:253 JLINK_ReadReg(FPS2)  returns 0x00000000 (0000ms, 0776ms total)
T0C74 002:253 JLINK_ReadReg(FPS3)  returns 0x00000000 (0000ms, 0776ms total)
T0C74 002:253 JLINK_ReadReg(FPS4)  returns 0x00000000 (0000ms, 0776ms total)
T0C74 002:253 JLINK_ReadReg(FPS5)  returns 0x00000000 (0000ms, 0776ms total)
T0C74 002:253 JLINK_ReadReg(FPS6)  returns 0x00000000 (0000ms, 0776ms total)
T0C74 002:253 JLINK_ReadReg(FPS7)  returns 0x00000000 (0000ms, 0776ms total)
T0C74 002:253 JLINK_ReadReg(FPS8)  returns 0x00000000 (0000ms, 0776ms total)
T0C74 002:253 JLINK_ReadReg(FPS9)  returns 0x00000000 (0000ms, 0776ms total)
T0C74 002:253 JLINK_ReadReg(FPS10)  returns 0x00000000 (0000ms, 0776ms total)
T0C74 002:253 JLINK_ReadReg(FPS11)  returns 0x00000000 (0000ms, 0776ms total)
T0C74 002:253 JLINK_ReadReg(FPS12)  returns 0x00000000 (0000ms, 0776ms total)
T0C74 002:253 JLINK_ReadReg(FPS13)  returns 0x00000000 (0000ms, 0776ms total)
T0C74 002:253 JLINK_ReadReg(FPS14)  returns 0x00000000 (0000ms, 0776ms total)
T0C74 002:253 JLINK_ReadReg(FPS15)  returns 0x00000000 (0000ms, 0776ms total)
T0C74 002:253 JLINK_ReadReg(FPS16)  returns 0x00000000 (0000ms, 0776ms total)
T0C74 002:253 JLINK_ReadReg(FPS17)  returns 0x00000000 (0000ms, 0776ms total)
T0C74 002:253 JLINK_ReadReg(FPS18)  returns 0x00000000 (0000ms, 0776ms total)
T0C74 002:253 JLINK_ReadReg(FPS19)  returns 0x00000000 (0000ms, 0776ms total)
T0C74 002:253 JLINK_ReadReg(FPS20)  returns 0x00000000 (0000ms, 0776ms total)
T0C74 002:253 JLINK_ReadReg(FPS31)  returns 0x00000000 (0000ms, 0776ms total)
T0C74 002:253 JLINK_ReadReg(FPS7)  returns 0x00000000 (0000ms, 0776ms total)
T0C74 002:253 JLINK_ReadReg(FPS8)  returns 0x00000000 (0000ms, 0776ms total)
T0C74 002:253 JLINK_ReadReg(FPS9)  returns 0x00000000 (0000ms, 0776ms total)
T0C74 002:253 JLINK_ReadReg(FPS10)  returns 0x00000000 (0000ms, 0776ms total)
T0C74 002:253 JLINK_ReadReg(FPS11)  returns 0x00000000 (0000ms, 0776ms total)
T0C74 002:253 JLINK_ReadReg(FPS12)  returns 0x00000000 (0000ms, 0776ms total)
T0C74 002:253 JLINK_ReadReg(FPS13)  returns 0x00000000 (0000ms, 0776ms total)
T0C74 002:253 JLINK_ReadReg(FPS14)  returns 0x00000000 (0000ms, 0776ms total)
T0C74 002:253 JLINK_ReadReg(FPS15)  returns 0x00000000 (0000ms, 0776ms total)
T0C74 002:253 JLINK_ReadReg(FPS16)  returns 0x00000000 (0000ms, 0776ms total)
T37A0 002:256 JLINK_ReadMemU32(0xE0001004, 0x0001 Items, ...) -- CPU_ReadMem(4 bytes @ 0xE0001004) -- Data:  A5 2D 00 00  returns 0x01 (0001ms, 0777ms total)
T37A0 002:261 JLINK_ReadMem (0x08000960, 0x003C Bytes, ...) -- CPU_ReadMem(128 bytes @ 0x08000940) -- Updating C cache (128 bytes @ 0x08000940) -- Read from C cache (60 bytes @ 0x08000960) -- Data:  05 E0 4F F4 07 70 00 F0 09 F8 70 1E C6 B2 00 2E ...  returns 0x00 (0004ms, 0781ms total)
T37A0 002:265 JLINK_ReadMem (0x0800099C, 0x003C Bytes, ...) -- CPU_ReadMem(64 bytes @ 0x080009C0) -- Updating C cache (64 bytes @ 0x080009C0) -- Read from C cache (60 bytes @ 0x0800099C) -- Data:  E0 22 10 69 00 F0 01 02 1A B1 00 F4 80 32 00 2A ...  returns 0x00 (0003ms, 0784ms total)
T37A0 002:268 JLINK_ReadMem (0x080009D8, 0x003C Bytes, ...) -- CPU_ReadMem(64 bytes @ 0x08000A00) -- Updating C cache (64 bytes @ 0x08000A00) -- Read from C cache (60 bytes @ 0x080009D8) -- Data:  FF F7 FC FC 00 20 8D F8 18 00 01 20 8D F8 1B 00 ...  returns 0x00 (0003ms, 0787ms total)
T37A0 002:271 JLINK_ReadMem (0x08000A14, 0x003C Bytes, ...) -- CPU_ReadMem(64 bytes @ 0x08000A40) -- Updating C cache (64 bytes @ 0x08000A40) -- Read from C cache (60 bytes @ 0x08000A14) -- Data:  AD F8 0A 00 02 A9 10 48 FF F7 AE FE 01 21 0E 48 ...  returns 0x00 (0002ms, 0789ms total)
T37A0 002:273 JLINK_ReadMem (0x08000A50, 0x003C Bytes, ...) -- CPU_ReadMem(64 bytes @ 0x08000A80) -- Updating C cache (64 bytes @ 0x08000A80) -- Read from C cache (60 bytes @ 0x08000A50) -- Data:  FF F7 68 FC 07 B0 00 BD 00 04 02 40 00 04 00 40 ...  returns 0x00 (0003ms, 0792ms total)
T0C74 010:839 JLINK_SetBPEx(Addr = 0x08000AAA, Type = 0xFFFFFFF2)  returns 0x00000006 (0001ms, 0793ms total)
T0C74 010:840 JLINK_SetBPEx(Addr = 0x08000A90, Type = 0xFFFFFFF2)  returns 0x00000007 (0000ms, 0793ms total)
T0C74 010:840 JLINK_SetBPEx(Addr = 0x08000A86, Type = 0xFFFFFFF2)  returns 0x00000008 (0000ms, 0793ms total)
T0C74 010:840 JLINK_SetBPEx(Addr = 0x08000A7C, Type = 0xFFFFFFF2)  returns 0x00000009 (0000ms, 0793ms total)
T0C74 010:840 JLINK_SetBPEx(Addr = 0x08000A78, Type = 0xFFFFFFF2)  returns 0x0000000A (0000ms, 0793ms total)
T0C74 010:840 JLINK_Go() -- CPU_WriteMem(4 bytes @ 0xE0002000) -- CPU_WriteMem(4 bytes @ 0xE0002000) -- CPU_WriteMem(4 bytes @ 0xE0002000) -- CPU_WriteMem(4 bytes @ 0xE0002000) -- CPU_WriteMem(4 bytes @ 0xE0002000) -- CPU_WriteMem(4 bytes @ 0xE0002008) -- CPU_WriteMem(4 bytes @ 0xE000200C) -- CPU_WriteMem(4 bytes @ 0xE0002010) -- CPU_WriteMem(4 bytes @ 0xE0002014) -- CPU_WriteMem(4 bytes @ 0xE0002018) (0013ms, 0806ms total)
T0C74 010:954 JLINK_IsHalted()  returns TRUE (0009ms, 0815ms total)
T0C74 010:963 JLINK_Halt()  returns 0x00 (0000ms, 0806ms total)
T0C74 010:963 JLINK_IsHalted()  returns TRUE (0000ms, 0806ms total)
T0C74 010:963 JLINK_IsHalted()  returns TRUE (0000ms, 0806ms total)
T0C74 010:963 JLINK_IsHalted()  returns TRUE (0000ms, 0806ms total)
T0C74 010:963 JLINK_ReadReg(R15 (PC))  returns 0x08000A78 (0000ms, 0806ms total)
T0C74 010:963 JLINK_ReadReg(XPSR)  returns 0x41000000 (0000ms, 0806ms total)
T0C74 010:963 JLINK_ClrBPEx(BPHandle = 0x00000006)  returns 0x00 (0000ms, 0806ms total)
T0C74 010:963 JLINK_ClrBPEx(BPHandle = 0x00000007)  returns 0x00 (0000ms, 0806ms total)
T0C74 010:963 JLINK_ClrBPEx(BPHandle = 0x00000008)  returns 0x00 (0000ms, 0806ms total)
T0C74 010:963 JLINK_ClrBPEx(BPHandle = 0x00000009)  returns 0x00 (0000ms, 0806ms total)
T0C74 010:963 JLINK_ClrBPEx(BPHandle = 0x0000000A)  returns 0x00 (0000ms, 0806ms total)
T0C74 010:963 JLINK_ReadMemU32(0xE000ED30, 0x0001 Items, ...) -- CPU_ReadMem(4 bytes @ 0xE000ED30) -- Data:  03 00 00 00  returns 0x01 (0001ms, 0807ms total)
T0C74 010:964 JLINK_ReadMemU32(0xE0001028, 0x0001 Items, ...) -- CPU_ReadMem(4 bytes @ 0xE0001028) -- Data:  00 00 00 00  returns 0x01 (0002ms, 0809ms total)
T0C74 010:966 JLINK_ReadMemU32(0xE0001038, 0x0001 Items, ...) -- CPU_ReadMem(4 bytes @ 0xE0001038) -- Data:  00 02 00 00  returns 0x01 (0001ms, 0810ms total)
T0C74 010:967 JLINK_ReadMemU32(0xE0001048, 0x0001 Items, ...) -- CPU_ReadMem(4 bytes @ 0xE0001048) -- Data:  00 00 00 00  returns 0x01 (0001ms, 0811ms total)
T0C74 010:968 JLINK_ReadMemU32(0xE0001058, 0x0001 Items, ...) -- CPU_ReadMem(4 bytes @ 0xE0001058) -- Data:  00 00 00 00  returns 0x01 (0002ms, 0813ms total)
T0C74 010:970 JLINK_ReadReg(R0)  returns 0x200004B4 (0000ms, 0813ms total)
T0C74 010:970 JLINK_ReadReg(R1)  returns 0x00000050 (0000ms, 0813ms total)
T0C74 010:970 JLINK_ReadReg(R2)  returns 0x00000003 (0000ms, 0813ms total)
T0C74 010:970 JLINK_ReadReg(R3)  returns 0x00000002 (0000ms, 0813ms total)
T0C74 010:970 JLINK_ReadReg(R4)  returns 0x08000AD8 (0000ms, 0813ms total)
T0C74 010:970 JLINK_ReadReg(R5)  returns 0x08000AD8 (0000ms, 0813ms total)
T0C74 010:970 JLINK_ReadReg(R6)  returns 0x00000000 (0000ms, 0813ms total)
T0C74 010:970 JLINK_ReadReg(R7)  returns 0x00000000 (0000ms, 0813ms total)
T0C74 010:970 JLINK_ReadReg(R8)  returns 0x00000000 (0000ms, 0813ms total)
T0C74 010:970 JLINK_ReadReg(R9)  returns 0x00000000 (0000ms, 0813ms total)
T0C74 010:970 JLINK_ReadReg(R10)  returns 0x00000000 (0000ms, 0813ms total)
T0C74 010:970 JLINK_ReadReg(R11)  returns 0x00000000 (0000ms, 0813ms total)
T0C74 010:970 JLINK_ReadReg(R12)  returns 0x00000000 (0000ms, 0813ms total)
T0C74 010:970 JLINK_ReadReg(R13 (SP))  returns 0x200004D0 (0000ms, 0813ms total)
T0C74 010:970 JLINK_ReadReg(R14)  returns 0x08000A55 (0000ms, 0813ms total)
T0C74 010:970 JLINK_ReadReg(R15 (PC))  returns 0x08000A78 (0000ms, 0813ms total)
T0C74 010:970 JLINK_ReadReg(XPSR)  returns 0x41000000 (0000ms, 0813ms total)
T0C74 010:970 JLINK_ReadReg(MSP)  returns 0x200004D0 (0000ms, 0813ms total)
T0C74 010:970 JLINK_ReadReg(PSP)  returns 0x00000000 (0000ms, 0813ms total)
T0C74 010:970 JLINK_ReadReg(CFBP)  returns 0x00000000 (0000ms, 0813ms total)
T0C74 010:970 JLINK_ReadReg(FPSCR)  returns 0x00000000 (0014ms, 0827ms total)
T0C74 010:984 JLINK_ReadReg(FPS0)  returns 0x00000000 (0000ms, 0827ms total)
T0C74 010:984 JLINK_ReadReg(FPS1)  returns 0x00000000 (0000ms, 0827ms total)
T0C74 010:984 JLINK_ReadReg(FPS2)  returns 0x00000000 (0000ms, 0827ms total)
T0C74 010:984 JLINK_ReadReg(FPS3)  returns 0x00000000 (0000ms, 0827ms total)
T0C74 010:984 JLINK_ReadReg(FPS4)  returns 0x00000000 (0000ms, 0827ms total)
T0C74 010:984 JLINK_ReadReg(FPS5)  returns 0x00000000 (0000ms, 0827ms total)
T0C74 010:984 JLINK_ReadReg(FPS6)  returns 0x00000000 (0000ms, 0827ms total)
T0C74 010:984 JLINK_ReadReg(FPS7)  returns 0x00000000 (0000ms, 0827ms total)
T0C74 010:984 JLINK_ReadReg(FPS8)  returns 0x00000000 (0000ms, 0827ms total)
T0C74 010:984 JLINK_ReadReg(FPS9)  returns 0x00000000 (0000ms, 0827ms total)
T0C74 010:984 JLINK_ReadReg(FPS10)  returns 0x00000000 (0000ms, 0827ms total)
T0C74 010:984 JLINK_ReadReg(FPS11)  returns 0x00000000 (0000ms, 0827ms total)
T0C74 010:984 JLINK_ReadReg(FPS12)  returns 0x00000000 (0000ms, 0827ms total)
T0C74 010:984 JLINK_ReadReg(FPS13)  returns 0x00000000 (0000ms, 0827ms total)
T0C74 010:984 JLINK_ReadReg(FPS14)  returns 0x00000000 (0000ms, 0827ms total)
T0C74 010:984 JLINK_ReadReg(FPS15)  returns 0x00000000 (0000ms, 0827ms total)
T0C74 010:984 JLINK_ReadReg(FPS16)  returns 0x00000000 (0000ms, 0827ms total)
T0C74 010:984 JLINK_ReadReg(FPS17)  returns 0x00000000 (0000ms, 0827ms total)
T0C74 010:984 JLINK_ReadReg(FPS18)  returns 0x00000000 (0000ms, 0827ms total)
T0C74 010:984 JLINK_ReadReg(FPS19)  returns 0x00000000 (0000ms, 0827ms total)
T0C74 010:984 JLINK_ReadReg(FPS20)  returns 0x00000000 (0000ms, 0827ms total)
T0C74 010:984 JLINK_ReadReg(FPS31)  returns 0x00000000 (0000ms, 0827ms total)
T0C74 010:984 JLINK_ReadReg(FPS7)  returns 0x00000000 (0000ms, 0827ms total)
T0C74 010:984 JLINK_ReadReg(FPS8)  returns 0x00000000 (0000ms, 0827ms total)
T0C74 010:984 JLINK_ReadReg(FPS9)  returns 0x00000000 (0000ms, 0827ms total)
T0C74 010:984 JLINK_ReadReg(FPS10)  returns 0x00000000 (0000ms, 0827ms total)
T0C74 010:984 JLINK_ReadReg(FPS11)  returns 0x00000000 (0000ms, 0827ms total)
T0C74 010:984 JLINK_ReadReg(FPS12)  returns 0x00000000 (0000ms, 0827ms total)
T0C74 010:984 JLINK_ReadReg(FPS13)  returns 0x00000000 (0000ms, 0827ms total)
T0C74 010:984 JLINK_ReadReg(FPS14)  returns 0x00000000 (0000ms, 0827ms total)
T0C74 010:984 JLINK_ReadReg(FPS15)  returns 0x00000000 (0000ms, 0827ms total)
T0C74 010:984 JLINK_ReadReg(FPS16)  returns 0x00000000 (0000ms, 0827ms total)
T37A0 010:984 JLINK_ReadMem (0x200004D4, 0x0004 Bytes, ...) -- CPU_ReadMem(64 bytes @ 0x200004C0) -- Updating C cache (64 bytes @ 0x200004C0) -- Read from C cache (4 bytes @ 0x200004D4) -- Data:  DD 01 00 08  returns 0x00 (0004ms, 0831ms total)
T37A0 010:988 JLINK_ReadMemU32(0xE0001004, 0x0001 Items, ...) -- CPU_ReadMem(4 bytes @ 0xE0001004) -- Data:  63 34 00 00  returns 0x01 (0002ms, 0833ms total)
T37A0 010:996 JLINK_ReadMem (0x08000A74, 0x003C Bytes, ...) -- CPU_ReadMem(128 bytes @ 0x08000A40) -- Updating C cache (128 bytes @ 0x08000A40) -- Read from C cache (60 bytes @ 0x08000A74) -- Data:  FF F7 A8 FF FF F7 06 FC 4F F4 00 61 0C 48 FF F7 ...  returns 0x00 (0005ms, 0838ms total)
T0C74 011:595 JLINK_Step() -- Read from C cache (2 bytes @ 0x08000A78) -- Read from C cache (2 bytes @ 0x08000A7A) -- Simulated  returns 0x00 (0001ms, 0839ms total)
T0C74 011:596 JLINK_ReadReg(R15 (PC))  returns 0x08000288 (0000ms, 0839ms total)
T0C74 011:596 JLINK_ReadReg(XPSR)  returns 0x41000000 (0000ms, 0839ms total)
T0C74 011:596 JLINK_SetBPEx(Addr = 0x08000AAA, Type = 0xFFFFFFF2)  returns 0x0000000B (0000ms, 0839ms total)
T0C74 011:596 JLINK_SetBPEx(Addr = 0x08000A90, Type = 0xFFFFFFF2)  returns 0x0000000C (0000ms, 0839ms total)
T0C74 011:596 JLINK_SetBPEx(Addr = 0x08000A86, Type = 0xFFFFFFF2)  returns 0x0000000D (0000ms, 0839ms total)
T0C74 011:596 JLINK_SetBPEx(Addr = 0x08000A7C, Type = 0xFFFFFFF2)  returns 0x0000000E (0000ms, 0839ms total)
T0C74 011:596 JLINK_SetBPEx(Addr = 0x08000A78, Type = 0xFFFFFFF2)  returns 0x0000000F (0000ms, 0839ms total)
T0C74 011:596 JLINK_Go() -- CPU_WriteMem(4 bytes @ 0xE0002000) -- CPU_WriteMem(4 bytes @ 0xE0002000) -- CPU_WriteMem(4 bytes @ 0xE0002000) -- CPU_WriteMem(4 bytes @ 0xE0002000) -- CPU_WriteMem(4 bytes @ 0xE0002000) -- CPU_WriteMem(4 bytes @ 0xE0001004) (0010ms, 0849ms total)
T0C74 011:707 JLINK_IsHalted()  returns FALSE (0001ms, 0850ms total)
T0C74 011:808 JLINK_IsHalted()  returns FALSE (0002ms, 0851ms total)
T0C74 011:910 JLINK_IsHalted()  returns FALSE (0004ms, 0853ms total)
T0C74 012:014 JLINK_IsHalted()  returns FALSE (0002ms, 0851ms total)
T0C74 012:116 JLINK_ReadMemU32(0xE0001004, 0x0001 Items, ...) -- CPU is running -- CPU_ReadMem(4 bytes @ 0xE0001004) -- Data:  6B 86 1F 05  returns 0x01 (0002ms, 0851ms total)
T0C74 012:119 JLINK_IsHalted()  returns FALSE (0000ms, 0851ms total)
T0C74 012:221 JLINK_IsHalted()  returns FALSE (0001ms, 0852ms total)
T0C74 012:322 JLINK_IsHalted()  returns FALSE (0001ms, 0852ms total)
T0C74 012:424 JLINK_IsHalted()  returns FALSE (0001ms, 0852ms total)
T0C74 012:525 JLINK_IsHalted()  returns FALSE (0001ms, 0852ms total)
T0C74 012:627 JLINK_IsHalted()  returns FALSE (0001ms, 0852ms total)
T0C74 012:729 JLINK_ReadMemU32(0xE0001004, 0x0001 Items, ...) -- CPU is running -- CPU_ReadMem(4 bytes @ 0xE0001004) -- Data:  52 C7 42 0B  returns 0x01 (0002ms, 0853ms total)
T0C74 012:731 JLINK_IsHalted()  returns FALSE (0002ms, 0855ms total)
T0C74 012:834 JLINK_IsHalted()  returns FALSE (0001ms, 0854ms total)
T0C74 012:936 JLINK_IsHalted()  returns FALSE (0002ms, 0855ms total)
T0C74 013:039 JLINK_IsHalted()  returns FALSE (0001ms, 0854ms total)
T0C74 013:141 JLINK_IsHalted()  returns FALSE (0001ms, 0854ms total)
T0C74 013:242 JLINK_ReadMemU32(0xE0001004, 0x0001 Items, ...) -- CPU is running -- CPU_ReadMem(4 bytes @ 0xE0001004) -- Data:  51 9E 65 10  returns 0x01 (0002ms, 0855ms total)
T0C74 013:244 JLINK_IsHalted()  returns FALSE (0000ms, 0855ms total)
T0C74 013:346 JLINK_IsHalted()  returns FALSE (0002ms, 0857ms total)
T0C74 013:448 JLINK_IsHalted()  returns FALSE (0001ms, 0856ms total)
T0C74 013:551 JLINK_IsHalted()  returns FALSE (0001ms, 0856ms total)
T0C74 013:653 JLINK_IsHalted()  returns FALSE (0001ms, 0856ms total)
T0C74 013:755 JLINK_ReadMemU32(0xE0001004, 0x0001 Items, ...) -- CPU is running -- CPU_ReadMem(4 bytes @ 0xE0001004) -- Data:  4B AE 89 15  returns 0x01 (0002ms, 0857ms total)
T0C74 013:758 JLINK_IsHalted()  returns FALSE (0000ms, 0857ms total)
T0C74 013:860 JLINK_IsHalted()  returns FALSE (0001ms, 0858ms total)
T0C74 013:962 JLINK_IsHalted()  returns FALSE (0001ms, 0858ms total)
T0C74 014:064 JLINK_IsHalted()  returns FALSE (0001ms, 0858ms total)
T0C74 014:166 JLINK_IsHalted()  returns FALSE (0001ms, 0858ms total)
T0C74 014:268 JLINK_IsHalted()  returns FALSE (0001ms, 0858ms total)
T0C74 014:371 JLINK_ReadMemU32(0xE0001004, 0x0001 Items, ...) -- CPU is running -- CPU_ReadMem(4 bytes @ 0xE0001004) -- Data:  34 E8 B1 1B  returns 0x01 (0001ms, 0858ms total)
T0C74 014:372 JLINK_IsHalted()  returns FALSE (0001ms, 0859ms total)
T0C74 014:473 JLINK_IsHalted()  returns FALSE (0002ms, 0860ms total)
T0C74 014:576 JLINK_IsHalted()  returns FALSE (0001ms, 0859ms total)
T0C74 014:678 JLINK_IsHalted()  returns FALSE (0002ms, 0860ms total)
T0C74 014:780 JLINK_IsHalted()  returns FALSE (0002ms, 0860ms total)
T0C74 014:883 JLINK_ReadMemU32(0xE0001004, 0x0001 Items, ...) -- CPU is running -- CPU_ReadMem(4 bytes @ 0xE0001004) -- Data:  3F 4C D2 20  returns 0x01 (0001ms, 0859ms total)
T0C74 014:884 JLINK_IsHalted()  returns FALSE (0002ms, 0861ms total)
T0C74 014:987 JLINK_IsHalted()  returns FALSE (0001ms, 0860ms total)
T0C74 015:089 JLINK_IsHalted()  returns FALSE (0001ms, 0860ms total)
T0C74 015:191 JLINK_IsHalted()  returns FALSE (0002ms, 0861ms total)
T0C74 015:294 JLINK_IsHalted()  returns FALSE (0001ms, 0860ms total)
T0C74 015:395 JLINK_ReadMemU32(0xE0001004, 0x0001 Items, ...) -- CPU is running -- CPU_ReadMem(4 bytes @ 0xE0001004) -- Data:  1A 18 F5 25  returns 0x01 (0001ms, 0860ms total)
T0C74 015:397 JLINK_IsHalted()  returns FALSE (0001ms, 0861ms total)
T0C74 015:498 JLINK_IsHalted()  returns FALSE (0001ms, 0861ms total)
T0C74 015:601 JLINK_IsHalted()  returns FALSE (0001ms, 0861ms total)
T0C74 015:703 JLINK_IsHalted()  returns FALSE (0001ms, 0861ms total)
T0C74 015:804 JLINK_IsHalted()  returns FALSE (0001ms, 0861ms total)
T0C74 015:906 JLINK_IsHalted()  returns FALSE (0001ms, 0861ms total)
T0C74 016:008 JLINK_ReadMemU32(0xE0001004, 0x0001 Items, ...) -- CPU is running -- CPU_ReadMem(4 bytes @ 0xE0001004) -- Data:  D1 62 1A 2C  returns 0x01 (0002ms, 0862ms total)
T0C74 016:011 JLINK_IsHalted()  returns FALSE (0001ms, 0863ms total)
T0C74 016:113 JLINK_IsHalted()  returns FALSE (0002ms, 0864ms total)
T0C74 016:215 JLINK_IsHalted()  returns FALSE (0001ms, 0863ms total)
T0C74 016:317 JLINK_IsHalted()  returns FALSE (0002ms, 0864ms total)
T0C74 016:419 JLINK_IsHalted()  returns FALSE (0001ms, 0863ms total)
T0C74 016:522 JLINK_ReadMemU32(0xE0001004, 0x0001 Items, ...) -- CPU is running -- CPU_ReadMem(4 bytes @ 0xE0001004) -- Data:  48 55 3C 31  returns 0x01 (0001ms, 0863ms total)
T0C74 016:524 JLINK_IsHalted()  returns FALSE (0001ms, 0864ms total)
T0C74 016:626 JLINK_IsHalted()  returns FALSE (0002ms, 0865ms total)
T0C74 016:728 JLINK_IsHalted()  returns FALSE (0003ms, 0866ms total)
T0C74 016:831 JLINK_IsHalted()  returns FALSE (0001ms, 0864ms total)
T0C74 016:934 JLINK_IsHalted()  returns FALSE (0001ms, 0864ms total)
T0C74 017:036 JLINK_ReadMemU32(0xE0001004, 0x0001 Items, ...) -- CPU is running -- CPU_ReadMem(4 bytes @ 0xE0001004) -- Data:  49 DE 65 36  returns 0x01 (0003ms, 0866ms total)
T0C74 017:039 JLINK_IsHalted()  returns FALSE (0002ms, 0868ms total)
T0C74 017:141 JLINK_IsHalted()  returns FALSE (0002ms, 0868ms total)
T0C74 017:243 JLINK_IsHalted()  returns FALSE (0001ms, 0867ms total)
T0C74 017:345 JLINK_IsHalted()  returns FALSE (0002ms, 0868ms total)
T0C74 017:447 JLINK_IsHalted()  returns FALSE (0001ms, 0867ms total)
T0C74 017:549 JLINK_IsHalted()  returns FALSE (0001ms, 0867ms total)
T0C74 017:652 JLINK_ReadMemU32(0xE0001004, 0x0001 Items, ...) -- CPU is running -- CPU_ReadMem(4 bytes @ 0xE0001004) -- Data:  23 AD 8C 3C  returns 0x01 (0001ms, 0867ms total)
T0C74 017:653 JLINK_IsHalted()  returns FALSE (0001ms, 0868ms total)
T0C74 017:755 JLINK_IsHalted()  returns FALSE (0002ms, 0869ms total)
T0C74 017:857 JLINK_IsHalted()  returns FALSE (0001ms, 0868ms total)
T0C74 017:959 JLINK_IsHalted()  returns FALSE (0001ms, 0868ms total)
T0C74 018:060 JLINK_IsHalted()  returns FALSE (0003ms, 0870ms total)
T0C74 018:164 JLINK_ReadMemU32(0xE0001004, 0x0001 Items, ...) -- CPU is running -- CPU_ReadMem(4 bytes @ 0xE0001004) -- Data:  8F EE AD 41  returns 0x01 (0001ms, 0868ms total)
T0C74 018:165 JLINK_IsHalted()  returns FALSE (0001ms, 0869ms total)
T0C74 018:268 JLINK_IsHalted()  returns FALSE (0003ms, 0871ms total)
T0C74 018:371 JLINK_IsHalted()  returns FALSE (0002ms, 0870ms total)
T0C74 018:473 JLINK_IsHalted()  returns FALSE (0002ms, 0870ms total)
T0C74 018:575 JLINK_IsHalted()  returns FALSE (0002ms, 0870ms total)
T0C74 018:678 JLINK_ReadMemU32(0xE0001004, 0x0001 Items, ...) -- CPU is running -- CPU_ReadMem(4 bytes @ 0xE0001004) -- Data:  82 BC D3 46  returns 0x01 (0001ms, 0869ms total)
T0C74 018:680 JLINK_IsHalted()  returns FALSE (0001ms, 0870ms total)
T0C74 018:781 JLINK_IsHalted()  returns FALSE (0002ms, 0871ms total)
T0C74 018:884 JLINK_IsHalted()  returns FALSE (0001ms, 0870ms total)
T0C74 018:986 JLINK_IsHalted()  returns FALSE (0002ms, 0871ms total)
T0C74 019:088 JLINK_IsHalted()  returns FALSE (0001ms, 0870ms total)
T0C74 019:191 JLINK_IsHalted()  returns FALSE (0001ms, 0870ms total)
T0C74 019:292 JLINK_ReadMemU32(0xE0001004, 0x0001 Items, ...) -- CPU is running -- CPU_ReadMem(4 bytes @ 0xE0001004) -- Data:  07 8D FC 4C  returns 0x01 (0001ms, 0870ms total)
T0C74 019:295 JLINK_IsHalted()  returns FALSE (0001ms, 0871ms total)
T0C74 019:397 JLINK_IsHalted()  returns FALSE (0001ms, 0871ms total)
T0C74 019:499 JLINK_IsHalted()  returns FALSE (0001ms, 0871ms total)
T0C74 019:601 JLINK_IsHalted()  returns FALSE (0001ms, 0871ms total)
T0C74 019:702 JLINK_IsHalted()  returns FALSE (0001ms, 0871ms total)
T0C74 019:804 JLINK_ReadMemU32(0xE0001004, 0x0001 Items, ...) -- CPU is running -- CPU_ReadMem(4 bytes @ 0xE0001004) -- Data:  E5 2C 1A 52  returns 0x01 (0001ms, 0871ms total)
T0C74 019:806 JLINK_IsHalted()  returns FALSE (0001ms, 0872ms total)
T0C74 019:908 JLINK_IsHalted()  returns FALSE (0002ms, 0873ms total)
T0C74 020:011 JLINK_IsHalted()  returns FALSE (0001ms, 0872ms total)
T0C74 020:112 JLINK_IsHalted()  returns FALSE (0001ms, 0872ms total)
T0C74 020:215 JLINK_IsHalted()  returns FALSE (0002ms, 0873ms total)
T0C74 020:319 JLINK_ReadMemU32(0xE0001004, 0x0001 Items, ...) -- CPU is running -- CPU_ReadMem(4 bytes @ 0xE0001004) -- Data:  B6 1C 42 57  returns 0x01 (0000ms, 0871ms total)
T0C74 020:319 JLINK_IsHalted()  returns FALSE (0003ms, 0874ms total)
T0C74 020:422 JLINK_IsHalted()  returns FALSE (0001ms, 0872ms total)
T0C74 020:524 JLINK_IsHalted()  returns FALSE (0002ms, 0873ms total)
T0C74 020:626 JLINK_IsHalted()  returns FALSE (0001ms, 0872ms total)
T0C74 020:728 JLINK_IsHalted()  returns FALSE (0001ms, 0872ms total)
T0C74 020:830 JLINK_IsHalted()  returns FALSE (0001ms, 0872ms total)
T0C74 020:932 JLINK_ReadMemU32(0xE0001004, 0x0001 Items, ...) -- CPU is running -- CPU_ReadMem(4 bytes @ 0xE0001004) -- Data:  B0 DC 65 5D  returns 0x01 (0001ms, 0872ms total)
T0C74 020:934 JLINK_IsHalted()  returns FALSE (0001ms, 0873ms total)
T0C74 021:036 JLINK_IsHalted()  returns FALSE (0002ms, 0874ms total)
T0C74 021:139 JLINK_IsHalted()  returns FALSE (0001ms, 0873ms total)
T0C74 021:240 JLINK_IsHalted()  returns FALSE (0001ms, 0873ms total)
T37A0 021:267 JLINK_SetBPEx(Addr = 0x08000A70, Type = 0xFFFFFFF2) -- CPU is running -- CPU is running -- CPU_WriteMem(4 bytes @ 0xE0002000) -- CPU is running -- CPU_WriteMem(4 bytes @ 0xE000201C)  returns 0x00000010 (0001ms, 0873ms total)
T0C74 021:342 JLINK_IsHalted()  returns FALSE (0001ms, 0874ms total)
T0C74 021:444 JLINK_ReadMemU32(0xE0001004, 0x0001 Items, ...) -- CPU is running -- CPU_ReadMem(4 bytes @ 0xE0001004) -- Data:  7F E7 86 62  returns 0x01 (0001ms, 0874ms total)
T0C74 021:446 JLINK_IsHalted()  returns FALSE (0001ms, 0875ms total)
T0C74 021:548 JLINK_IsHalted()  returns FALSE (0001ms, 0875ms total)
T0C74 021:650 JLINK_IsHalted()  returns FALSE (0000ms, 0874ms total)
T0C74 021:751 JLINK_IsHalted()  returns FALSE (0001ms, 0875ms total)
T0C74 021:852 JLINK_IsHalted()  returns FALSE (0002ms, 0876ms total)
T37A0 021:874 JLINK_SetBPEx(Addr = 0x08000A62, Type = 0xFFFFFFF2) -- CPU is running -- BP[0] @ 0x08000AAA converted into FlashBP -- CPU_ReadMem(64 bytes @ 0x08000180) -- Updating C cache (64 bytes @ 0x08000180) -- Read from C cache (2 bytes @ 0x080001B6) -- CPU_ReadMem(4 bytes @ 0xE0001004) -- Simulated -- Read from C cache (2 bytes @ 0x080001B6) -- Simulated -- Read from C cache (2 bytes @ 0x080001B6) -- Simulated -- Read from C cache (2 bytes @ 0x080001B6) -- Simulated
 -- Read from C cache (2 bytes @ 0x080001B6) -- Simulated -- Read from C cache (2 bytes @ 0x080001B6) -- Simulated -- Read from C cache (2 bytes @ 0x080001B6) -- Simulated -- Read from C cache (2 bytes @ 0x080001B6) -- Simulated -- Read from C cache (2 bytes @ 0x080001B6) -- Simulated -- Read from C cache (2 bytes @ 0x080001B6) -- Simulated -- CPU_ReadMem(384 bytes @ 0x08000000) -- Updating C cache (384 bytes @ 0x08000000) -- CPU_ReadMem(15936 bytes @ 0x080001C0)
 -- Updating C cache (15936 bytes @ 0x080001C0) -- Read from C cache (16384 bytes @ 0x08000000) -- Updating flash cache (16384 bytes @ 0x08000000) -- Programming range 0x08000000 - 0x08003FFF (  1 Sector, 16 KB) -- CPU clock frequency: 168025 kHz -- CPU_WriteMem(4 bytes @ 0xE0002000) -- CPU_ReadMem(4 bytes @ 0xE0002008) -- CPU_WriteMem(4 bytes @ 0xE000EDF4) -- CPU_ReadMem(4 bytes @ 0xE000EDF8) -- CPU_WriteMem(4 bytes @ 0xE0002008) -- CPU_WriteMem(4 bytes @ 0xE000EDF8)
 -- CPU_WriteMem(4 bytes @ 0xE000EDF4) -- CPU_WriteMem(4 bytes @ 0xE000EDF0) -- CPU_WriteMem(4 bytes @ 0xE000EDF0) -- CPU_ReadMem(4 bytes @ 0xE000EDF0) -- CPU_WriteMem(4 bytes @ 0xE000EDF0) -- CPU_WriteMem(4 bytes @ 0xE0002008) -- CPU_WriteMem(4 bytes @ 0xE000EDF8) -- CPU_WriteMem(4 bytes @ 0xE000EDF4) -- CPU_WriteMem(4 bytes @ 0xE0002000) -- CPU_WriteMem(4 bytes @ 0xE0002000) -- CPU_WriteMem(4 bytes @ 0xE0002000) -- CPU_WriteMem(4 bytes @ 0xE0002000) -- CPU_WriteMem(4 bytes @ 0xE0002000)
 -- CPU_WriteMem(4 bytes @ 0xE0002000) -- CPU_WriteMem(4 bytes @ 0xE0002008) -- CPU_WriteMem(4 bytes @ 0xE000200C) -- CPU_WriteMem(4 bytes @ 0xE0002010) -- CPU_WriteMem(4 bytes @ 0xE0002014) -- CPU_WriteMem(4 bytes @ 0xE0002018) -- CPU_WriteMem(4 bytes @ 0xE000201C)  returns 0x00000011 (1558ms, 2432ms total)
T0C74 023:433 JLINK_ReadMemU32(0xE0001004, 0x0001 Items, ...) -- CPU is running -- CPU_ReadMem(4 bytes @ 0xE0001004) -- Data:  97 6D 76 6A  returns 0x01 (0001ms, 2433ms total)
T0C74 023:435 JLINK_IsHalted()  returns FALSE (0002ms, 2435ms total)
T0C74 023:537 JLINK_IsHalted()  returns FALSE (0001ms, 2434ms total)
T0C74 023:639 JLINK_IsHalted()  returns FALSE (0001ms, 2434ms total)
T0C74 023:741 JLINK_IsHalted()  returns FALSE (0001ms, 2434ms total)
T0C74 023:842 JLINK_IsHalted()  returns FALSE (0001ms, 2434ms total)
T0C74 023:944 JLINK_ReadMemU32(0xE0001004, 0x0001 Items, ...) -- CPU is running -- CPU_ReadMem(4 bytes @ 0xE0001004) -- Data:  91 29 94 6F  returns 0x01 (0002ms, 2435ms total)
T0C74 023:947 JLINK_IsHalted()  returns FALSE (0001ms, 2436ms total)
T0C74 024:048 JLINK_IsHalted()  returns FALSE (0002ms, 2437ms total)
T0C74 024:151 JLINK_IsHalted()  returns FALSE (0001ms, 2436ms total)
T0C74 024:253 JLINK_IsHalted()  returns FALSE (0002ms, 2437ms total)
T0C74 024:356 JLINK_IsHalted()  returns FALSE (0002ms, 2437ms total)
T0C74 024:459 JLINK_ReadMemU32(0xE0001004, 0x0001 Items, ...) -- CPU is running -- CPU_ReadMem(4 bytes @ 0xE0001004) -- Data:  5E 44 BE 74  returns 0x01 (0002ms, 2437ms total)
T0C74 024:461 JLINK_IsHalted()  returns FALSE (0001ms, 2438ms total)
T0C74 024:564 JLINK_IsHalted()  returns FALSE (0002ms, 2439ms total)
T0C74 024:666 JLINK_IsHalted()  returns FALSE (0002ms, 2439ms total)
T0C74 024:768 JLINK_IsHalted()  returns FALSE (0001ms, 2438ms total)
T0C74 024:870 JLINK_Halt()  returns 0x00 (0009ms, 2446ms total)
T0C74 024:879 JLINK_IsHalted()  returns TRUE (0000ms, 2446ms total)
T0C74 024:879 JLINK_IsHalted()  returns TRUE (0000ms, 2446ms total)
T0C74 024:879 JLINK_IsHalted()  returns TRUE (0000ms, 2446ms total)
T0C74 024:879 JLINK_ReadReg(R15 (PC))  returns 0x080001B6 (0000ms, 2446ms total)
T0C74 024:879 JLINK_ReadReg(XPSR)  returns 0x4100002D (0000ms, 2446ms total)
T0C74 024:879 JLINK_ClrBPEx(BPHandle = 0x0000000B)  returns 0x00 (0000ms, 2446ms total)
T0C74 024:879 JLINK_ClrBPEx(BPHandle = 0x0000000C)  returns 0x00 (0000ms, 2446ms total)
T0C74 024:879 JLINK_ClrBPEx(BPHandle = 0x0000000D)  returns 0x00 (0000ms, 2446ms total)
T0C74 024:879 JLINK_ClrBPEx(BPHandle = 0x0000000E)  returns 0x00 (0000ms, 2446ms total)
T0C74 024:879 JLINK_ClrBPEx(BPHandle = 0x0000000F)  returns 0x00 (0000ms, 2446ms total)
T0C74 024:879 JLINK_ClrBPEx(BPHandle = 0x00000010)  returns 0x00 (0000ms, 2446ms total)
T0C74 024:879 JLINK_ClrBPEx(BPHandle = 0x00000011)  returns 0x00 (0000ms, 2446ms total)
T0C74 024:879 JLINK_ReadMemU32(0xE000ED30, 0x0001 Items, ...) -- CPU_ReadMem(4 bytes @ 0xE000ED30) -- Data:  01 00 00 00  returns 0x01 (0002ms, 2448ms total)
T0C74 024:881 JLINK_ReadMemU32(0xE0001028, 0x0001 Items, ...) -- CPU_ReadMem(4 bytes @ 0xE0001028) -- Data:  00 00 00 00  returns 0x01 (0002ms, 2450ms total)
T0C74 024:883 JLINK_ReadMemU32(0xE0001038, 0x0001 Items, ...) -- CPU_ReadMem(4 bytes @ 0xE0001038) -- Data:  00 02 00 00  returns 0x01 (0001ms, 2451ms total)
T0C74 024:884 JLINK_ReadMemU32(0xE0001048, 0x0001 Items, ...) -- CPU_ReadMem(4 bytes @ 0xE0001048) -- Data:  00 00 00 00  returns 0x01 (0001ms, 2452ms total)
T0C74 024:885 JLINK_ReadMemU32(0xE0001058, 0x0001 Items, ...) -- CPU_ReadMem(4 bytes @ 0xE0001058) -- Data:  00 00 00 00  returns 0x01 (0001ms, 2453ms total)
T0C74 024:886 JLINK_ReadReg(R0)  returns 0x200004B4 (0000ms, 2453ms total)
T0C74 024:886 JLINK_ReadReg(R1)  returns 0x00000050 (0000ms, 2453ms total)
T0C74 024:886 JLINK_ReadReg(R2)  returns 0x00000003 (0000ms, 2453ms total)
T0C74 024:886 JLINK_ReadReg(R3)  returns 0x00000002 (0000ms, 2453ms total)
T0C74 024:886 JLINK_ReadReg(R4)  returns 0x08000AD8 (0000ms, 2453ms total)
T0C74 024:886 JLINK_ReadReg(R5)  returns 0x08000AD8 (0000ms, 2453ms total)
T0C74 024:886 JLINK_ReadReg(R6)  returns 0x00000000 (0000ms, 2453ms total)
T0C74 024:886 JLINK_ReadReg(R7)  returns 0x00000000 (0000ms, 2453ms total)
T0C74 024:886 JLINK_ReadReg(R8)  returns 0x00000000 (0000ms, 2453ms total)
T0C74 024:886 JLINK_ReadReg(R9)  returns 0x00000000 (0000ms, 2453ms total)
T0C74 024:886 JLINK_ReadReg(R10)  returns 0x00000000 (0000ms, 2453ms total)
T0C74 024:886 JLINK_ReadReg(R11)  returns 0x00000000 (0000ms, 2453ms total)
T0C74 024:886 JLINK_ReadReg(R12)  returns 0x00000000 (0000ms, 2453ms total)
T0C74 024:886 JLINK_ReadReg(R13 (SP))  returns 0x200004B0 (0000ms, 2453ms total)
T0C74 024:886 JLINK_ReadReg(R14)  returns 0xFFFFFFF9 (0000ms, 2453ms total)
T0C74 024:886 JLINK_ReadReg(R15 (PC))  returns 0x080001B6 (0000ms, 2453ms total)
T0C74 024:886 JLINK_ReadReg(XPSR)  returns 0x4100002D (0000ms, 2453ms total)
T0C74 024:886 JLINK_ReadReg(MSP)  returns 0x200004B0 (0000ms, 2453ms total)
T0C74 024:886 JLINK_ReadReg(PSP)  returns 0x00000000 (0000ms, 2453ms total)
T0C74 024:886 JLINK_ReadReg(CFBP)  returns 0x00000000 (0000ms, 2453ms total)
T0C74 024:886 JLINK_ReadReg(FPSCR)  returns 0x00000000 (0014ms, 2467ms total)
T0C74 024:900 JLINK_ReadReg(FPS0)  returns 0x00000000 (0000ms, 2467ms total)
T0C74 024:900 JLINK_ReadReg(FPS1)  returns 0x00000000 (0000ms, 2467ms total)
T0C74 024:900 JLINK_ReadReg(FPS2)  returns 0x00000000 (0000ms, 2467ms total)
T0C74 024:900 JLINK_ReadReg(FPS3)  returns 0x00000000 (0000ms, 2467ms total)
T0C74 024:900 JLINK_ReadReg(FPS4)  returns 0x00000000 (0000ms, 2467ms total)
T0C74 024:900 JLINK_ReadReg(FPS5)  returns 0x00000000 (0000ms, 2467ms total)
T0C74 024:900 JLINK_ReadReg(FPS6)  returns 0x00000000 (0000ms, 2467ms total)
T0C74 024:900 JLINK_ReadReg(FPS7)  returns 0x00000000 (0000ms, 2467ms total)
T0C74 024:900 JLINK_ReadReg(FPS8)  returns 0x00000000 (0000ms, 2467ms total)
T0C74 024:900 JLINK_ReadReg(FPS9)  returns 0x00000000 (0000ms, 2467ms total)
T0C74 024:900 JLINK_ReadReg(FPS10)  returns 0x00000000 (0000ms, 2467ms total)
T0C74 024:900 JLINK_ReadReg(FPS11)  returns 0x00000000 (0000ms, 2467ms total)
T0C74 024:900 JLINK_ReadReg(FPS12)  returns 0x00000000 (0000ms, 2467ms total)
T0C74 024:900 JLINK_ReadReg(FPS13)  returns 0x00000000 (0000ms, 2467ms total)
T0C74 024:900 JLINK_ReadReg(FPS14)  returns 0x00000000 (0000ms, 2467ms total)
T0C74 024:900 JLINK_ReadReg(FPS15)  returns 0x00000000 (0000ms, 2467ms total)
T0C74 024:900 JLINK_ReadReg(FPS16)  returns 0x00000000 (0000ms, 2467ms total)
T0C74 024:900 JLINK_ReadReg(FPS17)  returns 0x00000000 (0000ms, 2467ms total)
T0C74 024:900 JLINK_ReadReg(FPS18)  returns 0x00000000 (0000ms, 2467ms total)
T0C74 024:900 JLINK_ReadReg(FPS19)  returns 0x00000000 (0000ms, 2467ms total)
T0C74 024:900 JLINK_ReadReg(FPS20)  returns 0x00000000 (0000ms, 2467ms total)
T0C74 024:900 JLINK_ReadReg(FPS31)  returns 0x00000000 (0000ms, 2467ms total)
T0C74 024:900 JLINK_ReadReg(FPS7)  returns 0x00000000 (0000ms, 2467ms total)
T0C74 024:900 JLINK_ReadReg(FPS8)  returns 0x00000000 (0000ms, 2467ms total)
T0C74 024:900 JLINK_ReadReg(FPS9)  returns 0x00000000 (0000ms, 2467ms total)
T0C74 024:900 JLINK_ReadReg(FPS10)  returns 0x00000000 (0001ms, 2468ms total)
T0C74 024:901 JLINK_ReadReg(FPS11)  returns 0x00000000 (0000ms, 2468ms total)
T0C74 024:901 JLINK_ReadReg(FPS12)  returns 0x00000000 (0000ms, 2468ms total)
T0C74 024:901 JLINK_ReadReg(FPS13)  returns 0x00000000 (0000ms, 2468ms total)
T0C74 024:901 JLINK_ReadReg(FPS14)  returns 0x00000000 (0000ms, 2468ms total)
T0C74 024:901 JLINK_ReadReg(FPS15)  returns 0x00000000 (0000ms, 2468ms total)
T0C74 024:901 JLINK_ReadReg(FPS16)  returns 0x00000000 (0000ms, 2468ms total)
T37A0 024:901 JLINK_ReadMem (0x200004C8, 0x0004 Bytes, ...) -- CPU_ReadMem(64 bytes @ 0x200004C0) -- Updating C cache (64 bytes @ 0x200004C0) -- Read from C cache (4 bytes @ 0x200004C8) -- Data:  88 02 00 08  returns 0x00 (0002ms, 2470ms total)
T37A0 024:903 JLINK_ReadMem (0x200004CC, 0x0004 Bytes, ...) -- Read from C cache (4 bytes @ 0x200004CC) -- Data:  00 00 00 41  returns 0x00 (0000ms, 2470ms total)
T37A0 024:903 JLINK_ReadMem (0x200004C4, 0x0004 Bytes, ...) -- Read from C cache (4 bytes @ 0x200004C4) -- Data:  7D 0A 00 08  returns 0x00 (0000ms, 2470ms total)
T37A0 024:903 JLINK_ReadMem (0xE000ED28, 0x0004 Bytes, ...) -- CPU_ReadMem(4 bytes @ 0xE000ED28) -- Data:  00 00 00 00  returns 0x00 (0002ms, 2472ms total)
T37A0 024:905 JLINK_ReadMem (0x200004D4, 0x0004 Bytes, ...) -- Read from C cache (4 bytes @ 0x200004D4) -- Data:  DD 01 00 08  returns 0x00 (0000ms, 2472ms total)
T37A0 024:908 JLINK_ReadMemU32(0xE0001004, 0x0001 Items, ...) -- CPU_ReadMem(4 bytes @ 0xE0001004) -- Data:  61 43 D9 78  returns 0x01 (0002ms, 2474ms total)
T37A0 024:914 JLINK_ReadMem (0x080001B4, 0x003C Bytes, ...) -- Read from flash cache (60 bytes @ 0x080001B4) -- Data:  FE E7 FE E7 51 05 00 08 89 01 00 08 06 4C 07 4D ...  returns 0x00 (0000ms, 2474ms total)
T37A0 024:932 JLINK_ReadMem (0x0800019C, 0x003C Bytes, ...) -- Read from flash cache (60 bytes @ 0x0800019C) -- Data:  06 48 80 47 06 48 00 47 FE E7 FE E7 FE E7 FE E7 ...  returns 0x00 (0001ms, 2475ms total)
T37A0 025:483 JLINK_SetResetType(JLINKARM_RESET_TYPE_NORMAL)  returns JLINKARM_RESET_TYPE_NORMAL (0000ms, 2475ms total)
T37A0 025:483 JLINK_Reset() -- Read from flash cache (16384 bytes @ 0x08000000) -- Programming range 0x08000000 - 0x08003FFF (  1 Sector, 16 KB) -- CPU clock frequency: 167966 kHz -- CPU_WriteMem(4 bytes @ 0xE0002000) -- CPU_ReadMem(4 bytes @ 0xE0002008) -- CPU_WriteMem(4 bytes @ 0xE000EDF4) -- CPU_ReadMem(4 bytes @ 0xE000EDF8) -- CPU_WriteMem(4 bytes @ 0xE0002008) -- CPU_WriteMem(4 bytes @ 0xE000EDF8) -- CPU_WriteMem(4 bytes @ 0xE000EDF4) -- CPU_WriteMem(4 bytes @ 0xE000EDF0)
 -- CPU_WriteMem(4 bytes @ 0xE000EDF0) -- CPU_ReadMem(4 bytes @ 0xE000EDF0) -- CPU_WriteMem(4 bytes @ 0xE000EDF0) -- CPU_WriteMem(4 bytes @ 0xE0002008) -- CPU_WriteMem(4 bytes @ 0xE000EDF8) -- CPU_WriteMem(4 bytes @ 0xE000EDF4) -- CPU_WriteMem(4 bytes @ 0xE000EDF0) -- CPU_WriteMem(4 bytes @ 0xE000EDFC) >0x35 TIF> -- CPU_WriteMem(4 bytes @ 0xE000ED0C) -- CPU_ReadMem(4 bytes @ 0xE000EDF0) -- CPU_ReadMem(4 bytes @ 0xE000EDF0) -- CPU_WriteMem(4 bytes @ 0xE000EDF0) -- CPU_WriteMem(4 bytes @ 0xE000EDFC)
 -- CPU is running -- CPU_ReadMem(4 bytes @ 0xE000EDF0) -- CPU_WriteMem(4 bytes @ 0xE0002000) -- CPU_ReadMem(4 bytes @ 0xE000EDFC) -- CPU_ReadMem(4 bytes @ 0xE0001000) (1122ms, 3597ms total)
T37A0 026:605 JLINK_ReadReg(R15 (PC))  returns 0x0800019C (0000ms, 3597ms total)
T37A0 026:605 JLINK_ReadReg(XPSR)  returns 0x01000000 (0000ms, 3597ms total)
T37A0 026:606 JLINK_ReadMemU32(0xE0001004, 0x0001 Items, ...) -- CPU_ReadMem(4 bytes @ 0xE0001004) -- Data:  7B D0 A0 7C  returns 0x01 (0002ms, 3599ms total)
T0C74 027:689 JLINK_SetBPEx(Addr = 0x08000AAA, Type = 0xFFFFFFF2)  returns 0x00000012 (0000ms, 3599ms total)
T0C74 027:689 JLINK_SetBPEx(Addr = 0x08000A90, Type = 0xFFFFFFF2)  returns 0x00000013 (0000ms, 3599ms total)
T0C74 027:689 JLINK_SetBPEx(Addr = 0x08000A86, Type = 0xFFFFFFF2)  returns 0x00000014 (0000ms, 3599ms total)
T0C74 027:689 JLINK_SetBPEx(Addr = 0x08000A7C, Type = 0xFFFFFFF2)  returns 0x00000015 (0000ms, 3599ms total)
T0C74 027:689 JLINK_SetBPEx(Addr = 0x08000A78, Type = 0xFFFFFFF2)  returns 0x00000016 (0000ms, 3599ms total)
T0C74 027:689 JLINK_SetBPEx(Addr = 0x08000A70, Type = 0xFFFFFFF2)  returns 0x00000017 (0000ms, 3599ms total)
T0C74 027:689 JLINK_SetBPEx(Addr = 0x08000A62, Type = 0xFFFFFFF2) -- BP[0] @ 0x08000AAA converted into FlashBP  returns 0x00000018 (0000ms, 3599ms total)
T0C74 027:689 JLINK_Go() -- Read from flash cache (2 bytes @ 0x0800019C) -- Read from flash cache (4 bytes @ 0x080001B8) -- Simulated -- Read from flash cache (2 bytes @ 0x0800019E) -- Simulated -- Read from flash cache (2 bytes @ 0x08000550) -- CPU_WriteMem(8 bytes @ 0x200004D0) -- Simulated -- Read from flash cache (2 bytes @ 0x08000552) -- Read from flash cache (4 bytes @ 0x080005A8) -- Simulated -- Read from flash cache (2 bytes @ 0x08000554) -- Not simulated
 -- Read from flash cache (16384 bytes @ 0x08000000) -- Programming range 0x08000000 - 0x08003FFF (  1 Sector, 16 KB) -- CPU clock frequency: 15936 kHz -- CPU_WriteMem(4 bytes @ 0xE0002000) -- CPU_ReadMem(4 bytes @ 0xE0002008) -- CPU_WriteMem(4 bytes @ 0xE000EDF4) -- CPU_ReadMem(4 bytes @ 0xE000EDF8) -- CPU_WriteMem(4 bytes @ 0xE0002008) -- CPU_WriteMem(4 bytes @ 0xE000EDF8) -- CPU_WriteMem(4 bytes @ 0xE000EDF4) -- CPU_WriteMem(4 bytes @ 0xE000EDF0) -- CPU_WriteMem(4 bytes @ 0xE000EDF0)
